Circuit: * C:\Users\Usuario\Documents\UdeM\2022-1\repos-electronica\transistores\ejemplos-clase\transistor-amplificador\base_comun\bjt_cb_OP.asc

Direct Newton iteration for .op point succeeded.
Semiconductor Device Operating Points:
                        --- Bipolar Transistors ---
Name:       q1
Model:   npn_ideal
Ib:       9.90e-06
Ic:       9.90e-04
Vbe:      7.74e-01
Vbc:     -2.08e+00
Vce:      2.85e+00
BetaDC:   1.00e+02
Gm:       3.83e-02
Rpi:      2.61e+03
Rx:       0.00e+00
Ro:       2.11e+49
Cbe:      0.00e+00
Cbc:      0.00e+00
Cjs:      0.00e+00
BetaAC:   1.00e+02
Cbx:      0.00e+00
Ft:       0.00e+00



Date: Mon May 09 22:47:15 2022
Total elapsed time: 0.061 seconds.

tnom = 27
temp = 27
method = trap
totiter = 7
traniter = 0
tranpoints = 0
accept = 0
rejected = 0
matrix size = 10
fillins = 0
solver = Normal
Matrix Compiler1: 274 bytes object code size
Matrix Compiler2: 604 bytes object code size
