Circuit: * C:\Users\Usuario\Documents\UdeM\2022-1\repos-electronica\transistores\ejemplos-clase\transistor-amplificador\esquemas-polarizacion\example1_design2.asc

Direct Newton iteration for .op point succeeded.
Semiconductor Device Operating Points:
                        --- Bipolar Transistors ---
Name:       q1
Model:   npn_ideal
Ib:       9.60e-06
Ic:       9.60e-04
Vbe:      7.73e-01
Vbc:     -4.18e+00
Vce:      4.96e+00
BetaDC:   1.00e+02
Gm:       3.71e-02
Rpi:      2.69e+03
Rx:       0.00e+00
Ro:       4.59e+84
Cbe:      0.00e+00
Cbc:      0.00e+00
Cjs:      0.00e+00
BetaAC:   1.00e+02
Cbx:      0.00e+00
Ft:       0.00e+00



Date: Sat May 14 20:42:00 2022
Total elapsed time: 0.055 seconds.

tnom = 27
temp = 27
method = trap
totiter = 7
traniter = 0
tranpoints = 0
accept = 0
rejected = 0
matrix size = 5
fillins = 0
solver = Normal
Matrix Compiler1: 248 bytes object code size
Matrix Compiler2: 389 bytes object code size
