Circuit: * C:\Users\Usuario\Documents\UdeM\2022-1\repos-electronica\transistores\ejemplos-clase\transistor-amplificador\esquemas-polarizacion\example1_design1.asc

Direct Newton iteration for .op point succeeded.
Semiconductor Device Operating Points:
                        --- Bipolar Transistors ---
Name:       q1
Model:   npn_ideal
Ib:       9.79e-06
Ic:       9.79e-04
Vbe:      7.74e-01
Vbc:     -4.35e+00
Vce:      5.12e+00
BetaDC:   1.00e+02
Gm:       3.78e-02
Rpi:      2.64e+03
Rx:       0.00e+00
Ro:       2.46e+87
Cbe:      0.00e+00
Cbc:      0.00e+00
Cjs:      0.00e+00
BetaAC:   1.00e+02
Cbx:      0.00e+00
Ft:       0.00e+00



Date: Sat May 14 20:40:23 2022
Total elapsed time: 0.061 seconds.

tnom = 27
temp = 27
method = trap
totiter = 7
traniter = 0
tranpoints = 0
accept = 0
rejected = 0
matrix size = 5
fillins = 0
solver = Normal
Matrix Compiler1: 248 bytes object code size
Matrix Compiler2: 389 bytes object code size
