Circuit: * C:\Users\Usuario\Documents\UdeM\2022-1\repos-electronica\transistores\ejemplos-clase\transistor-amplificador\esquemas-polarizacion\example4.asc

Direct Newton iteration for .op point succeeded.
Semiconductor Device Operating Points:
                        --- Bipolar Transistors ---
Name:       q3          q2          q1
Model:   npn_ideal   npn_ideal   npn_ideal
Ib:       9.77e-06    9.77e-06    9.67e-06
Ic:       9.77e-04    9.77e-04    9.67e-04
Vbe:      7.74e-01    7.74e-01    7.73e-01
Vbc:     -7.49e+00    0.00e+00   -3.71e+00
Vce:      8.26e+00    7.74e-01    4.49e+00
BetaDC:   1.00e+02    1.00e+02    1.00e+02
Gm:       3.78e-02    3.78e-02    3.74e-02
Rpi:      2.65e+03    2.65e+03    2.67e+03
Rx:       0.00e+00    0.00e+00    0.00e+00
Ro:       0.00e+00    2.59e+14    6.08e+76
Cbe:      0.00e+00    0.00e+00    0.00e+00
Cbc:      0.00e+00    0.00e+00    0.00e+00
Cjs:      0.00e+00    0.00e+00    0.00e+00
BetaAC:   1.00e+02    1.00e+02    1.00e+02
Cbx:      0.00e+00    0.00e+00    0.00e+00
Ft:       0.00e+00    0.00e+00    0.00e+00



Date: Sat May 14 20:50:49 2022
Total elapsed time: 0.065 seconds.

tnom = 27
temp = 27
method = trap
totiter = 7
traniter = 0
tranpoints = 0
accept = 0
rejected = 0
matrix size = 8
fillins = 0
solver = Normal
Matrix Compiler1: 362 bytes object code size
Matrix Compiler2: 628 bytes object code size
