Circuit: * C:\Users\Usuario\Documents\UdeM\2022-1\repos-electronica\transistores\ejemplos-clase\transistor-amplificador\esquemas-polarizacion\example3.asc

Direct Newton iteration for .op point succeeded.
Semiconductor Device Operating Points:
                        --- Bipolar Transistors ---
Name:       q1
Model:   npn_ideal
Ib:       9.82e-06
Ic:       9.82e-04
Vbe:      7.74e-01
Vbc:     -1.59e+00
Vce:      2.36e+00
BetaDC:   1.00e+02
Gm:       3.80e-02
Rpi:      2.63e+03
Rx:       0.00e+00
Ro:       1.32e+41
Cbe:      0.00e+00
Cbc:      0.00e+00
Cjs:      0.00e+00
BetaAC:   1.00e+02
Cbx:      0.00e+00
Ft:       0.00e+00



Date: Fri May 13 00:06:55 2022
Total elapsed time: 0.054 seconds.

tnom = 27
temp = 27
method = trap
totiter = 7
traniter = 0
tranpoints = 0
accept = 0
rejected = 0
matrix size = 4
fillins = 0
solver = Normal
Matrix Compiler1: 100 bytes object code size
Matrix Compiler2: 248 bytes object code size
