Circuit: * C:\Users\Usuario\Documents\UdeM\2022-1\repos-electronica\transistores\ejemplos-clase\transistor-amplificador\esquemas-polarizacion\example1_design2.asc

Direct Newton iteration for .op point succeeded.
Semiconductor Device Operating Points:
                        --- Bipolar Transistors ---
Name:       q1
Model:   npn_ideal
Ib:       4.02e-04
Ic:       1.46e-03
Vbe:      7.95e-01
Vbc:      7.49e-01
Vce:      4.56e-02
BetaDC:   3.62e+00
Gm:       7.10e-02
Rpi:      1.17e+03
Rx:       0.00e+00
Ro:       6.80e+01
Cbe:      0.00e+00
Cbc:      0.00e+00
Cjs:      0.00e+00
BetaAC:   8.28e+01
Cbx:      0.00e+00
Ft:       0.00e+00



Date: Thu May 12 23:58:20 2022
Total elapsed time: 0.058 seconds.

tnom = 27
temp = 27
method = trap
totiter = 6
traniter = 0
tranpoints = 0
accept = 0
rejected = 0
matrix size = 5
fillins = 0
solver = Normal
Matrix Compiler1: 248 bytes object code size
Matrix Compiler2: 389 bytes object code size
