Circuit: * C:\Users\Usuario\Documents\UdeM\2022-1\repos-electronica\transistores\ejemplos-clase\transistor-amplificador\bjt_amp-ejemplo1_DC.asc

Direct Newton iteration for .op point succeeded.
Semiconductor Device Operating Points:
                        --- Bipolar Transistors ---
Name:       q1
Model:   npn_ideal
Ib:       2.21e-05
Ic:       2.21e-03
Vbe:      7.95e-01
Vbc:     -2.59e+00
Vce:      3.38e+00
BetaDC:   1.00e+02
Gm:       8.53e-02
Rpi:      1.17e+03
Rx:       0.00e+00
Ro:       7.77e+57
Cbe:      0.00e+00
Cbc:      0.00e+00
Cjs:      0.00e+00
BetaAC:   1.00e+02
Cbx:      0.00e+00
Ft:       0.00e+00



Date: Wed Apr 20 00:12:42 2022
Total elapsed time: 0.055 seconds.

tnom = 27
temp = 27
method = trap
totiter = 6
traniter = 0
tranpoints = 0
accept = 0
rejected = 0
matrix size = 6
fillins = 0
solver = Normal
Matrix Compiler1: 146 bytes object code size
Matrix Compiler2: 380 bytes object code size
