Circuit: * C:\Users\Usuario\Documents\UdeM\2022-1\repos-electronica\transistores\ejemplos-clase\transistor-amplificador\colector_comun\bjt_cc_OP.asc

Direct Newton iteration for .op point succeeded.
Semiconductor Device Operating Points:
                        --- Bipolar Transistors ---
Name:       q1
Model:   npn_ideal
Ib:       9.98e-06
Ic:       9.90e-04
Vbe:      7.74e-01
Vbc:     -1.10e+01
Vce:      1.18e+01
BetaDC:   9.92e+01
Gm:       3.83e-02
Rpi:      2.59e+03
Rx:       0.00e+00
Ro:       0.00e+00
Cbe:      0.00e+00
Cbc:      0.00e+00
Cjs:      0.00e+00
BetaAC:   9.92e+01
Cbx:      0.00e+00
Ft:       0.00e+00



Date: Tue May 10 00:00:05 2022
Total elapsed time: 0.051 seconds.

tnom = 27
temp = 27
method = trap
totiter = 7
traniter = 0
tranpoints = 0
accept = 0
rejected = 0
matrix size = 10
fillins = 0
solver = Normal
Matrix Compiler1: 310 bytes object code size
Matrix Compiler2: 632 bytes object code size
