Circuit: * C:\Users\Usuario\Documents\UdeM\2022-1\repos-electronica\transistores\ejemplos-clase\transistor-amplificador\bjt_ejemplo2\bjt_amp-ejemplo2_DC.asc

Direct Newton iteration for .op point succeeded.
Semiconductor Device Operating Points:
                        --- Bipolar Transistors ---
Name:       q1
Model:   pnp_ideal
Ib:      -9.14e-06
Ic:      -9.14e-04
Vbe:     -7.72e-01
Vbc:      5.43e+00
Vce:     -6.20e+00
BetaDC:   1.00e+02
Gm:       3.53e-02
Rpi:      2.83e+03
Rx:       0.00e+00
Ro:       0.00e+00
Cbe:      0.00e+00
Cbc:      0.00e+00
Cjs:      0.00e+00
BetaAC:   1.00e+02
Cbx:      0.00e+00
Ft:       0.00e+00



Date: Tue Apr 26 23:29:05 2022
Total elapsed time: 0.053 seconds.

tnom = 27
temp = 27
method = trap
totiter = 7
traniter = 0
tranpoints = 0
accept = 0
rejected = 0
matrix size = 6
fillins = 0
solver = Normal
Matrix Compiler1: 146 bytes object code size
Matrix Compiler2: 380 bytes object code size
